
T1240 000:302 SEGGER J-Link V4.91b (beta) Log File (0001ms, 0277ms total)
T1240 000:302 DLL Compiled: Sep 15 2014 09:17:56 (0001ms, 0277ms total)
T1240 000:302 Logging started @ 2019-06-19 17:25 (0001ms, 0277ms total)
T1240 000:303 JLINK_SetWarnOutHandler(...) (0000ms, 0277ms total)
T1240 000:303 JLINK_OpenEx(...)
Firmware: J-Link V9 compiled Mar  2 2018 17:07:57
Hardware: V9.40
S/N: 59406895
Feature(s): RDI, GDB, FlashDL, FlashBP, JFlash  returns O.K. (0273ms, 0550ms total)
T1240 000:576 JLINK_SetErrorOutHandler(...) (0000ms, 0550ms total)
T1240 000:576 JLINK_ExecCommand("ProjectFile = "G:\GitRepository\Sonar\USER\JLinkSettings.ini"", ...)  returns 0x00 (0000ms, 0550ms total)
T1240 000:576 JLINK_ExecCommand("Device = STM32F103RB", ...)Device "STM32F103RB" selected (128 KB flash, 20 KB RAM).  returns 0x00 (0000ms, 0550ms total)
T1240 000:576 JLINK_ExecCommand("DisableConnectionTimeout", ...)  returns 0x01 (0000ms, 0550ms total)
T1240 000:576 JLINK_GetHardwareVersion()  returns 0x16F30 (0000ms, 0550ms total)
T1240 000:576 JLINK_GetDLLVersion()  returns 49102 (0000ms, 0550ms total)
T1240 000:576 JLINK_GetFirmwareString(...) (0000ms, 0550ms total)
T1240 000:576 JLINK_GetDLLVersion()  returns 49102 (0000ms, 0550ms total)
T1240 000:576 JLINK_GetCompileDateTime() (0000ms, 0550ms total)
T1240 000:576 JLINK_GetFirmwareString(...) (0000ms, 0550ms total)
T1240 000:576 JLINK_GetHardwareVersion()  returns 0x16F30 (0000ms, 0550ms total)
T1240 000:576 JLINK_TIF_Select(JLINKARM_TIF_SWD)  returns 0x00 (0004ms, 0554ms total)
T1240 000:580 JLINK_SetSpeed(2000) (0001ms, 0555ms total)
T1240 000:581 JLINK_GetId() >0x108 TIF>Found SWD-DP with ID 0x1BA01477 >0x0D TIF> >0x28 TIF> >0x0D TIF> >0x28 TIF> >0x0D TIF> >0x21 TIF> >0x0D TIF> >0x28 TIF> >0x0D TIF> >0x28 TIF> >0x0D TIF> >0x28 TIF> >0x0D TIF> >0x21 TIF> >0x0D TIF> >0x21 TIF> >0x0D TIF> >0x28 TIF> >0x0D TIF> >0x21 TIF> >0x0D TIF> >0x21 TIF> >0x108 TIF>Found SWD-DP with ID 0x1BA01477 >0x0D TIF> >0x21 TIF> >0x0D TIF> >0x28 TIF> >0x0D TIF> >0x28 TIF> >0x0D TIF> >0x21 TIF> >0x0D TIF> >0x28 TIF> >0x0D TIF> >0x21 TIF> >0x0D TIF> >0x21 TIF>
 >0x0D TIF> >0x21 TIF> >0x0D TIF> >0x21 TIF> >0x0D TIF> >0x28 TIF> >0x0D TIF> >0x28 TIF> >0x0D TIF> >0x21 TIF> >0x0D TIF> >0x28 TIF> >0x0D TIF> >0x28 TIF> >0x0D TIF> >0x28 TIF> >0x0D TIF> >0x21 TIF> >0x0D TIF> >0x21 TIF> >0x0D TIF> >0x28 TIF> >0x0D TIF> >0x21 TIF> >0x0D TIF> >0x21 TIF>Found Cortex-M3 r1p1, Little endian. -- CPU_WriteMem(4 bytes @ 0xE0002000) -- CPU_ReadMem(4 bytes @ 0xE000EDF0) -- CPU_ReadMem(4 bytes @ 0xE0002000)FPUnit: 6 code (BP) slots and 2 literal slots
 -- CPU_ReadMem(4 bytes @ 0xE000EDFC) -- CPU_ReadMem(4 bytes @ 0xE0001000) -- CPU_WriteMem(4 bytes @ 0xE0001000) -- CPU_ReadMem(4 bytes @ 0xE000ED88) -- CPU_WriteMem(4 bytes @ 0xE000ED88) -- CPU_ReadMem(4 bytes @ 0xE000ED88) -- CPU_WriteMem(4 bytes @ 0xE000ED88) -- CPU_ReadMem(4 bytes @ 0xE00FF010)TPIU fitted. -- CPU_ReadMem(4 bytes @ 0xE00FF014) -- CPU_ReadMem(4 bytes @ 0xE00FF018) >0x0D TIF> >0x21 TIF>  returns 0x1BA01477 (0085ms, 0640ms total)
T1240 000:666 JLINK_GetDeviceFamily()  returns 3 (0000ms, 0640ms total)
T1240 000:666 JLINK_ReadMem (0xE00FFFF0, 0x0010 Bytes, ...) -- CPU is running -- CPU_ReadMem(16 bytes @ 0xE00FFFF0) - Data: 0D 00 00 00 10 00 00 00 05 00 00 00 B1 00 00 00  returns 0x00 (0001ms, 0641ms total)
T1240 000:667 JLINK_ReadMem (0xE00FFFD0, 0x0020 Bytes, ...) -- CPU is running -- CPU_ReadMem(32 bytes @ 0xE00FFFD0) - Data: 00 00 00 00 00 00 00 00 00 00 00 00 00 00 00 00 ...  returns 0x00 (0001ms, 0642ms total)
T1240 000:668 JLINK_ReadMem (0xE00FF000, 0x0018 Bytes, ...) -- CPU is running -- CPU_ReadMem(24 bytes @ 0xE00FF000) - Data: 03 F0 F0 FF 03 20 F0 FF 03 30 F0 FF 03 10 F0 FF ...  returns 0x00 (0001ms, 0643ms total)
T1240 000:669 JLINK_ReadMemU32(0xE000ED00, 0x0001 Items, ...) -- CPU is running -- CPU_ReadMem(4 bytes @ 0xE000ED00) - Data: 31 C2 1F 41  returns 0x01 (0001ms, 0644ms total)
T1240 000:670 JLINK_SetResetType(JLINKARM_RESET_TYPE_NORMAL)  returns JLINKARM_RESET_TYPE_NORMAL (0000ms, 0644ms total)
T1240 000:670 JLINK_Reset() -- CPU is running -- CPU_WriteMem(4 bytes @ 0xE000EDF0) -- CPU is running -- CPU_WriteMem(4 bytes @ 0xE000EDFC) >0x35 TIF> -- CPU is running -- CPU_WriteMem(4 bytes @ 0xE000ED0C) -- CPU is running -- CPU_ReadMem(4 bytes @ 0xE000EDF0) -- CPU is running -- CPU_ReadMem(4 bytes @ 0xE000EDF0) -- CPU is running -- CPU_WriteMem(4 bytes @ 0xE000EDF0) -- CPU is running -- CPU_WriteMem(4 bytes @ 0xE000EDFC) -- CPU is running -- CPU_ReadMem(4 bytes @ 0xE000EDF0)
 -- CPU_WriteMem(4 bytes @ 0xE0002000) -- CPU_ReadMem(4 bytes @ 0xE000EDFC) -- CPU_ReadMem(4 bytes @ 0xE0001000) (0024ms, 0668ms total)
T1240 000:694 JLINK_ReadReg(R15 (PC))  returns 0x08000146 (0000ms, 0668ms total)
T1240 000:694 JLINK_ReadReg(XPSR)  returns 0x01000000 (0000ms, 0668ms total)
T1240 000:694 JLINK_Halt()  returns 0x00 (0000ms, 0668ms total)
T1240 000:694 JLINK_IsHalted()  returns TRUE (0000ms, 0668ms total)
T1240 000:694 JLINK_ReadMemU32(0xE000EDF0, 0x0001 Items, ...) -- CPU_ReadMem(4 bytes @ 0xE000EDF0) - Data: 03 00 03 00  returns 0x01 (0001ms, 0669ms total)
T1240 000:695 JLINK_WriteU32(0xE000EDF0, 0xA05F0003) -- CPU_WriteMem(4 bytes @ 0xE000EDF0)  returns 0x00 (0001ms, 0670ms total)
T1240 000:696 JLINK_WriteU32(0xE000EDFC, 0x01000000) -- CPU_WriteMem(4 bytes @ 0xE000EDFC)  returns 0x00 (0001ms, 0671ms total)
T1240 000:697 JLINK_GetHWStatus(...)  returns 0x00 (0001ms, 0672ms total)
T1240 000:698 JLINK_GetNumBPUnits(Type = 0xFFFFFF00)  returns 0x06 (0000ms, 0672ms total)
T1240 000:698 JLINK_GetNumBPUnits(Type = 0xF0)  returns 0x2000 (0000ms, 0672ms total)
T1240 000:698 JLINK_GetNumWPUnits()  returns 0x04 (0000ms, 0672ms total)
T1240 000:698 JLINK_GetSpeed()  returns 0x7D0 (0000ms, 0672ms total)
T1240 000:698 JLINK_ReadMemU32(0xE000E004, 0x0001 Items, ...) -- CPU_ReadMem(4 bytes @ 0xE000E004) - Data: 01 00 00 00  returns 0x01 (0001ms, 0673ms total)
T1240 000:699 JLINK_ReadMemU32(0xE000E004, 0x0001 Items, ...) -- CPU_ReadMem(4 bytes @ 0xE000E004) - Data: 01 00 00 00  returns 0x01 (0001ms, 0674ms total)
T1240 000:700 JLINK_WriteMem(0xE0001000, 0x001C Bytes, ...) - Data: 01 00 00 00 00 00 00 00 00 00 00 00 00 00 00 00 ... -- CPU_WriteMem(28 bytes @ 0xE0001000)  returns 0x1C (0001ms, 0675ms total)
T1240 000:701 JLINK_ReadMem (0xE0001000, 0x001C Bytes, ...) -- CPU_ReadMem(28 bytes @ 0xE0001000) - Data: 01 00 00 40 00 00 00 00 00 00 00 00 00 00 00 00 ...  returns 0x00 (0001ms, 0676ms total)
T1240 000:702 JLINK_ReadReg(R15 (PC))  returns 0x08000146 (0000ms, 0676ms total)
T1240 000:702 JLINK_ReadReg(XPSR)  returns 0x01000000 (0000ms, 0676ms total)
T1240 000:774 JLINK_SetResetType(JLINKARM_RESET_TYPE_NORMAL)  returns JLINKARM_RESET_TYPE_NORMAL (0000ms, 0676ms total)
T1240 000:774 JLINK_Reset() -- CPU_WriteMem(4 bytes @ 0xE000EDF0) -- CPU_WriteMem(4 bytes @ 0xE000EDFC) >0x35 TIF> -- CPU_WriteMem(4 bytes @ 0xE000ED0C) -- CPU_ReadMem(4 bytes @ 0xE000EDF0) -- CPU_ReadMem(4 bytes @ 0xE000EDF0) -- CPU_WriteMem(4 bytes @ 0xE000EDF0) -- CPU_WriteMem(4 bytes @ 0xE000EDFC) -- CPU is running -- CPU_ReadMem(4 bytes @ 0xE000EDF0) -- CPU_WriteMem(4 bytes @ 0xE0002000) -- CPU_ReadMem(4 bytes @ 0xE000EDFC) -- CPU_ReadMem(4 bytes @ 0xE0001000) (0024ms, 0700ms total)
T1240 000:798 JLINK_ReadReg(R15 (PC))  returns 0x08000146 (0000ms, 0700ms total)
T1240 000:798 JLINK_ReadReg(XPSR)  returns 0x01000000 (0000ms, 0700ms total)
T1240 000:798 JLINK_ReadMem (0x08000146, 0x0002 Bytes, ...) -- CPU_ReadMem(64 bytes @ 0x08000140) -- Updating C cache (64 bytes @ 0x08000140) -- Read from C cache (2 bytes @ 0x08000146) - Data: 08 48  returns 0x00 (0002ms, 0702ms total)
T1240 000:800 JLINK_ReadMem (0x08000148, 0x003C Bytes, ...) -- CPU_ReadMem(64 bytes @ 0x08000180) -- Updating C cache (64 bytes @ 0x08000180) -- Read from C cache (60 bytes @ 0x08000148) - Data: 80 47 08 49 81 F3 08 88 07 48 00 47 FE E7 FE E7 ...  returns 0x00 (0001ms, 0703ms total)
T1240 001:295 JLINK_ReadMem (0x40010800, 0x000C Bytes, ...) -- CPU_ReadMem(12 bytes @ 0x40010800) - Data: 44 44 44 44 44 44 84 88 00 00 00 00  returns 0x00 (0002ms, 0705ms total)
T1240 001:297 JLINK_ReadMem (0x4001080C, 0x0004 Bytes, ...) -- CPU_ReadMem(4 bytes @ 0x4001080C) - Data: 00 A0 00 00  returns 0x00 (0001ms, 0706ms total)
T1240 001:298 JLINK_ReadMem (0x40010818, 0x0004 Bytes, ...) -- CPU_ReadMem(4 bytes @ 0x40010818) - Data: 00 00 00 00  returns 0x00 (0001ms, 0707ms total)
T1240 001:313 JLINK_ReadMem (0x40010C00, 0x000C Bytes, ...) -- CPU_ReadMem(12 bytes @ 0x40010C00) - Data: 44 44 48 44 44 44 44 44 00 00 00 00  returns 0x00 (0001ms, 0708ms total)
T1240 001:314 JLINK_ReadMem (0x40010C0C, 0x0004 Bytes, ...) -- CPU_ReadMem(4 bytes @ 0x40010C0C) - Data: 10 00 00 00  returns 0x00 (0001ms, 0709ms total)
T1240 001:315 JLINK_ReadMem (0x40010C18, 0x0004 Bytes, ...) -- CPU_ReadMem(4 bytes @ 0x40010C18) - Data: 00 00 00 00  returns 0x00 (0001ms, 0710ms total)
T1240 001:330 JLINK_ReadMem (0x40011000, 0x000C Bytes, ...) -- CPU_ReadMem(12 bytes @ 0x40011000) - Data: 44 44 44 44 44 44 44 44 00 00 00 00  returns 0x00 (0002ms, 0712ms total)
T1240 001:332 JLINK_ReadMem (0x4001100C, 0x0004 Bytes, ...) -- CPU_ReadMem(4 bytes @ 0x4001100C) - Data: 00 00 00 00  returns 0x00 (0001ms, 0713ms total)
T1240 001:333 JLINK_ReadMem (0x40011018, 0x0004 Bytes, ...) -- CPU_ReadMem(4 bytes @ 0x40011018) - Data: 00 00 00 00  returns 0x00 (0001ms, 0714ms total)
T1240 001:348 JLINK_ReadMem (0x40011400, 0x000C Bytes, ...) -- CPU_ReadMem(12 bytes @ 0x40011400) - Data: 44 44 44 44 44 44 44 44 00 00 00 00  returns 0x00 (0001ms, 0715ms total)
T1240 001:349 JLINK_ReadMem (0x4001140C, 0x0004 Bytes, ...) -- CPU_ReadMem(4 bytes @ 0x4001140C) - Data: 00 00 00 00  returns 0x00 (0001ms, 0716ms total)
T1240 001:350 JLINK_ReadMem (0x40011418, 0x0004 Bytes, ...) -- CPU_ReadMem(4 bytes @ 0x40011418) - Data: 00 00 00 00  returns 0x00 (0001ms, 0717ms total)
T1240 001:365 JLINK_ReadMem (0x40021000, 0x0024 Bytes, ...) -- CPU_ReadMem(36 bytes @ 0x40021000) - Data: 83 57 00 00 00 00 00 00 00 00 00 00 00 00 00 00 ...  returns 0x00 (0001ms, 0718ms total)
T1240 001:366 JLINK_ReadMem (0x40021024, 0x0004 Bytes, ...) -- CPU_ReadMem(4 bytes @ 0x40021024) - Data: 00 00 00 1C  returns 0x00 (0001ms, 0719ms total)
T1240 001:380 JLINK_ReadMem (0x40013000, 0x0020 Bytes, ...) -- CPU_ReadMem(32 bytes @ 0x40013000) - Data: 00 00 00 00 00 00 00 00 00 00 00 00 00 00 00 00 ...  returns 0x00 (0001ms, 0720ms total)
T1240 001:381 JLINK_ReadMem (0x40013020, 0x0004 Bytes, ...) -- CPU_ReadMem(4 bytes @ 0x40013020) - Data: 00 00 00 00  returns 0x00 (0001ms, 0721ms total)
T1240 001:917 JLINK_ReadMem (0x20000042, 0x0002 Bytes, ...) -- CPU_ReadMem(64 bytes @ 0x20000040) -- Updating C cache (64 bytes @ 0x20000040) -- Read from C cache (2 bytes @ 0x20000042) - Data: 00 00  returns 0x00 (0001ms, 0722ms total)
T1240 001:922 JLINK_ReadMem (0x20000060, 0x0002 Bytes, ...) -- Read from C cache (2 bytes @ 0x20000060) - Data: 00 00  returns 0x00 (0000ms, 0722ms total)
T1838 002:022 JLINK_SetBPEx(Addr = 0x08000174, Type = 0xFFFFFFF2)  returns 0x00000001 (0000ms, 0722ms total)
T1838 002:022 JLINK_Go() -- CPU_WriteMem(4 bytes @ 0xE0002000) -- CPU_WriteMem(4 bytes @ 0xE0002008) -- CPU_WriteMem(4 bytes @ 0xE000200C) -- CPU_WriteMem(4 bytes @ 0xE0002010) -- CPU_WriteMem(4 bytes @ 0xE0002014) -- CPU_WriteMem(4 bytes @ 0xE0002018) -- CPU_WriteMem(4 bytes @ 0xE000201C) -- CPU_WriteMem(4 bytes @ 0xE0001004) (0010ms, 0732ms total)
T1838 002:132 JLINK_IsHalted()  returns TRUE (0004ms, 0736ms total)
T1838 002:136 JLINK_Halt()  returns 0x00 (0000ms, 0732ms total)
T1838 002:136 JLINK_IsHalted()  returns TRUE (0000ms, 0732ms total)
T1838 002:136 JLINK_IsHalted()  returns TRUE (0000ms, 0732ms total)
T1838 002:136 JLINK_IsHalted()  returns TRUE (0000ms, 0732ms total)
T1838 002:136 JLINK_ReadReg(R15 (PC))  returns 0x08000174 (0000ms, 0732ms total)
T1838 002:136 JLINK_ReadReg(XPSR)  returns 0x61000000 (0000ms, 0732ms total)
T1838 002:136 JLINK_ClrBPEx(BPHandle = 0x00000001)  returns 0x00 (0000ms, 0732ms total)
T1838 002:136 JLINK_ReadMemU32(0xE000ED30, 0x0001 Items, ...) -- CPU_ReadMem(4 bytes @ 0xE000ED30) - Data: 02 00 00 00  returns 0x01 (0001ms, 0733ms total)
T1838 002:137 JLINK_ReadMemU32(0xE0001028, 0x0001 Items, ...) -- CPU_ReadMem(4 bytes @ 0xE0001028) - Data: 00 00 00 00  returns 0x01 (0005ms, 0738ms total)
T1838 002:142 JLINK_ReadMemU32(0xE0001038, 0x0001 Items, ...) -- CPU_ReadMem(4 bytes @ 0xE0001038) - Data: 00 02 00 00  returns 0x01 (0002ms, 0740ms total)
T1838 002:144 JLINK_ReadMemU32(0xE0001048, 0x0001 Items, ...) -- CPU_ReadMem(4 bytes @ 0xE0001048) - Data: 00 00 00 00  returns 0x01 (0001ms, 0741ms total)
T1838 002:145 JLINK_ReadMemU32(0xE0001058, 0x0001 Items, ...) -- CPU_ReadMem(4 bytes @ 0xE0001058) - Data: 00 00 00 00  returns 0x01 (0001ms, 0742ms total)
T1838 002:146 JLINK_ReadReg(R0)  returns 0x08000175 (0000ms, 0742ms total)
T1838 002:146 JLINK_ReadReg(R1)  returns 0x200012B8 (0000ms, 0742ms total)
T1838 002:146 JLINK_ReadReg(R2)  returns 0x00000000 (0000ms, 0742ms total)
T1838 002:146 JLINK_ReadReg(R3)  returns 0x08003B15 (0000ms, 0742ms total)
T1838 002:146 JLINK_ReadReg(R4)  returns 0x08003B58 (0000ms, 0742ms total)
T1838 002:146 JLINK_ReadReg(R5)  returns 0x08003B58 (0000ms, 0742ms total)
T1838 002:146 JLINK_ReadReg(R6)  returns 0x00000000 (0000ms, 0742ms total)
T1838 002:146 JLINK_ReadReg(R7)  returns 0x00000000 (0000ms, 0742ms total)
T1838 002:146 JLINK_ReadReg(R8)  returns 0x00000000 (0000ms, 0742ms total)
T1838 002:146 JLINK_ReadReg(R9)  returns 0x20000160 (0000ms, 0742ms total)
T1838 002:146 JLINK_ReadReg(R10)  returns 0x00000000 (0000ms, 0742ms total)
T1838 002:146 JLINK_ReadReg(R11)  returns 0x00000000 (0000ms, 0742ms total)
T1838 002:146 JLINK_ReadReg(R12)  returns 0x00000003 (0000ms, 0742ms total)
T1838 002:146 JLINK_ReadReg(R13 (SP))  returns 0x200012B8 (0000ms, 0742ms total)
T1838 002:146 JLINK_ReadReg(R14)  returns 0x08003AFD (0000ms, 0742ms total)
T1838 002:146 JLINK_ReadReg(R15 (PC))  returns 0x08000174 (0000ms, 0742ms total)
T1838 002:146 JLINK_ReadReg(XPSR)  returns 0x61000000 (0000ms, 0742ms total)
T1838 002:146 JLINK_ReadReg(MSP)  returns 0x200012B8 (0000ms, 0742ms total)
T1838 002:146 JLINK_ReadReg(PSP)  returns 0x20000800 (0000ms, 0742ms total)
T1838 002:146 JLINK_ReadReg(CFBP)  returns 0x00000000 (0000ms, 0742ms total)
T1240 002:148 JLINK_ReadMem (0x20000042, 0x0002 Bytes, ...) -- CPU_ReadMem(64 bytes @ 0x20000040) -- Updating C cache (64 bytes @ 0x20000040) -- Read from C cache (2 bytes @ 0x20000042) - Data: 00 00  returns 0x00 (0001ms, 0743ms total)
T1240 002:149 JLINK_ReadMem (0x40013000, 0x0020 Bytes, ...) -- CPU_ReadMem(32 bytes @ 0x40013000) - Data: 00 00 00 00 00 00 00 00 00 00 00 00 00 00 00 00 ...  returns 0x00 (0001ms, 0744ms total)
T1240 002:150 JLINK_ReadMem (0x40013020, 0x0004 Bytes, ...) -- CPU_ReadMem(4 bytes @ 0x40013020) - Data: 00 00 00 00  returns 0x00 (0001ms, 0745ms total)
T1240 002:151 JLINK_ReadMem (0x40021000, 0x0024 Bytes, ...) -- CPU_ReadMem(36 bytes @ 0x40021000) - Data: 83 57 00 00 00 00 00 00 00 00 00 00 00 00 00 00 ...  returns 0x00 (0001ms, 0746ms total)
T1240 002:152 JLINK_ReadMem (0x40021024, 0x0004 Bytes, ...) -- CPU_ReadMem(4 bytes @ 0x40021024) - Data: 00 00 00 1C  returns 0x00 (0001ms, 0747ms total)
T1240 002:153 JLINK_ReadMem (0x40011400, 0x000C Bytes, ...) -- CPU_ReadMem(12 bytes @ 0x40011400) - Data: 44 44 44 44 44 44 44 44 00 00 00 00  returns 0x00 (0001ms, 0748ms total)
T1240 002:154 JLINK_ReadMem (0x4001140C, 0x0004 Bytes, ...) -- CPU_ReadMem(4 bytes @ 0x4001140C) - Data: 00 00 00 00  returns 0x00 (0001ms, 0749ms total)
T1240 002:155 JLINK_ReadMem (0x40011418, 0x0004 Bytes, ...) -- CPU_ReadMem(4 bytes @ 0x40011418) - Data: 00 00 00 00  returns 0x00 (0001ms, 0750ms total)
T1240 002:156 JLINK_ReadMem (0x40010800, 0x000C Bytes, ...) -- CPU_ReadMem(12 bytes @ 0x40010800) - Data: 44 44 44 44 44 44 84 88 00 00 00 00  returns 0x00 (0001ms, 0751ms total)
T1240 002:157 JLINK_ReadMem (0x4001080C, 0x0004 Bytes, ...) -- CPU_ReadMem(4 bytes @ 0x4001080C) - Data: 00 A0 00 00  returns 0x00 (0001ms, 0752ms total)
T1240 002:158 JLINK_ReadMem (0x40010818, 0x0004 Bytes, ...) -- CPU_ReadMem(4 bytes @ 0x40010818) - Data: 00 00 00 00  returns 0x00 (0001ms, 0753ms total)
T1240 002:159 JLINK_ReadMem (0x40010C00, 0x000C Bytes, ...) -- CPU_ReadMem(12 bytes @ 0x40010C00) - Data: 44 44 48 44 44 44 44 44 00 00 00 00  returns 0x00 (0001ms, 0754ms total)
T1240 002:160 JLINK_ReadMem (0x40010C0C, 0x0004 Bytes, ...) -- CPU_ReadMem(4 bytes @ 0x40010C0C) - Data: 10 00 00 00  returns 0x00 (0001ms, 0755ms total)
T1240 002:161 JLINK_ReadMem (0x40010C18, 0x0004 Bytes, ...) -- CPU_ReadMem(4 bytes @ 0x40010C18) - Data: 00 00 00 00  returns 0x00 (0001ms, 0756ms total)
T1240 002:162 JLINK_ReadMem (0x40011000, 0x000C Bytes, ...) -- CPU_ReadMem(12 bytes @ 0x40011000) - Data: 44 44 44 44 44 44 44 44 00 00 00 00  returns 0x00 (0001ms, 0757ms total)
T1240 002:163 JLINK_ReadMem (0x4001100C, 0x0004 Bytes, ...) -- CPU_ReadMem(4 bytes @ 0x4001100C) - Data: 00 00 00 00  returns 0x00 (0001ms, 0758ms total)
T1240 002:164 JLINK_ReadMem (0x40011018, 0x0004 Bytes, ...) -- CPU_ReadMem(4 bytes @ 0x40011018) - Data: 00 00 00 00  returns 0x00 (0001ms, 0759ms total)
T1240 002:165 JLINK_ReadMem (0x08000174, 0x003C Bytes, ...) -- CPU_ReadMem(128 bytes @ 0x08000140) -- Updating C cache (128 bytes @ 0x08000140) -- Read from C cache (60 bytes @ 0x08000174) - Data: 10 B5 01 F0 6F FE 02 F0 01 F9 00 20 10 BD 00 00 ...  returns 0x00 (0002ms, 0761ms total)
T1838 005:601 JLINK_Go() -- CPU_WriteMem(4 bytes @ 0xE0002008) (0005ms, 0766ms total)
T1838 005:706 JLINK_IsHalted()  returns FALSE (0001ms, 0767ms total)
T1838 005:807 JLINK_IsHalted()  returns FALSE (0001ms, 0767ms total)
T1838 005:908 JLINK_IsHalted()  returns FALSE (0001ms, 0767ms total)
T1838 006:009 JLINK_IsHalted()  returns FALSE (0001ms, 0767ms total)
T1838 006:110 JLINK_ReadMemU32(0xE0001004, 0x0001 Items, ...) -- CPU is running -- CPU_ReadMem(4 bytes @ 0xE0001004) - Data: 50 06 2A 02  returns 0x01 (0001ms, 0767ms total)
T1240 006:112 JLINK_ReadMem (0x20000042, 0x0002 Bytes, ...) -- CPU is running -- CPU_ReadMem(2 bytes @ 0x20000042) - Data: 00 00  returns 0x00 (0001ms, 0768ms total)
T1240 006:113 JLINK_ReadMem (0x40013000, 0x0020 Bytes, ...) -- CPU is running -- CPU_ReadMem(32 bytes @ 0x40013000) - Data: 00 00 00 00 00 00 00 00 00 00 00 00 00 00 00 00 ...  returns 0x00 (0001ms, 0769ms total)
T1240 006:114 JLINK_ReadMem (0x40013020, 0x0004 Bytes, ...) -- CPU is running -- CPU_ReadMem(4 bytes @ 0x40013020) - Data: 00 00 00 00  returns 0x00 (0001ms, 0770ms total)
T1240 006:115 JLINK_ReadMem (0x40021000, 0x0024 Bytes, ...) -- CPU is running -- CPU_ReadMem(36 bytes @ 0x40021000) - Data: 83 57 03 03 0A 04 1D 00 00 00 00 00 00 00 00 00 ...  returns 0x00 (0001ms, 0771ms total)
T1240 006:116 JLINK_ReadMem (0x40021024, 0x0004 Bytes, ...) -- CPU is running -- CPU_ReadMem(4 bytes @ 0x40021024) - Data: 00 00 00 1C  returns 0x00 (0001ms, 0772ms total)
T1240 006:117 JLINK_ReadMem (0x40011400, 0x000C Bytes, ...) -- CPU is running -- CPU_ReadMem(12 bytes @ 0x40011400) - Data: 44 44 44 44 44 44 44 44 04 00 00 00  returns 0x00 (0001ms, 0773ms total)
T1240 006:118 JLINK_ReadMem (0x4001140C, 0x0004 Bytes, ...) -- CPU is running -- CPU_ReadMem(4 bytes @ 0x4001140C) - Data: 00 00 00 00  returns 0x00 (0001ms, 0774ms total)
T1240 006:119 JLINK_ReadMem (0x40011418, 0x0004 Bytes, ...) -- CPU is running -- CPU_ReadMem(4 bytes @ 0x40011418) - Data: 00 00 00 00  returns 0x00 (0001ms, 0775ms total)
T1240 006:120 JLINK_ReadMem (0x40010800, 0x000C Bytes, ...) -- CPU is running -- CPU_ReadMem(12 bytes @ 0x40010800) - Data: 33 4B 33 44 B4 44 84 88 44 DF 00 00  returns 0x00 (0001ms, 0776ms total)
T1240 006:121 JLINK_ReadMem (0x4001080C, 0x0004 Bytes, ...) -- CPU is running -- CPU_ReadMem(4 bytes @ 0x4001080C) - Data: 00 A0 00 00  returns 0x00 (0001ms, 0777ms total)
T1240 006:122 JLINK_ReadMem (0x40010818, 0x0004 Bytes, ...) -- CPU is running -- CPU_ReadMem(4 bytes @ 0x40010818) - Data: 00 00 00 00  returns 0x00 (0001ms, 0778ms total)
T1240 006:123 JLINK_ReadMem (0x40010C00, 0x000C Bytes, ...) -- CPU is running -- CPU_ReadMem(12 bytes @ 0x40010C00) - Data: 44 44 44 44 33 44 33 43 FB 8C 00 00  returns 0x00 (0001ms, 0779ms total)
T1240 006:124 JLINK_ReadMem (0x40010C0C, 0x0004 Bytes, ...) -- CPU is running -- CPU_ReadMem(4 bytes @ 0x40010C0C) - Data: 10 00 00 00  returns 0x00 (0001ms, 0780ms total)
T1240 006:125 JLINK_ReadMem (0x40010C18, 0x0004 Bytes, ...) -- CPU is running -- CPU_ReadMem(4 bytes @ 0x40010C18) - Data: 00 00 00 00  returns 0x00 (0001ms, 0781ms total)
T1240 006:126 JLINK_ReadMem (0x40011000, 0x000C Bytes, ...) -- CPU is running -- CPU_ReadMem(12 bytes @ 0x40011000) - Data: 43 44 44 44 44 44 44 44 EF FF 00 00  returns 0x00 (0002ms, 0783ms total)
T1240 006:128 JLINK_ReadMem (0x4001100C, 0x0004 Bytes, ...) -- CPU is running -- CPU_ReadMem(4 bytes @ 0x4001100C) - Data: 01 00 00 00  returns 0x00 (0001ms, 0784ms total)
T1240 006:129 JLINK_ReadMem (0x40011018, 0x0004 Bytes, ...) -- CPU is running -- CPU_ReadMem(4 bytes @ 0x40011018) - Data: 00 00 00 00  returns 0x00 (0001ms, 0785ms total)
T1838 006:130 JLINK_IsHalted()  returns FALSE (0001ms, 0786ms total)
T1838 006:231 JLINK_IsHalted()  returns FALSE (0001ms, 0786ms total)
T1838 006:332 JLINK_IsHalted()  returns FALSE (0001ms, 0786ms total)
T1838 006:433 JLINK_IsHalted()  returns FALSE (0001ms, 0786ms total)
T1838 006:534 JLINK_IsHalted()  returns FALSE (0001ms, 0786ms total)
T1838 006:635 JLINK_ReadMemU32(0xE0001004, 0x0001 Items, ...) -- CPU is running -- CPU_ReadMem(4 bytes @ 0xE0001004) - Data: 8E 1A 6C 04  returns 0x01 (0002ms, 0787ms total)
T1240 006:638 JLINK_ReadMem (0x20000042, 0x0002 Bytes, ...) -- CPU is running -- CPU_ReadMem(2 bytes @ 0x20000042) - Data: 00 00  returns 0x00 (0001ms, 0788ms total)
T1240 006:639 JLINK_ReadMem (0x40013000, 0x0020 Bytes, ...) -- CPU is running -- CPU_ReadMem(32 bytes @ 0x40013000) - Data: 00 00 00 00 00 00 00 00 00 00 00 00 00 00 00 00 ...  returns 0x00 (0001ms, 0789ms total)
T1240 006:640 JLINK_ReadMem (0x40013020, 0x0004 Bytes, ...) -- CPU is running -- CPU_ReadMem(4 bytes @ 0x40013020) - Data: 00 00 00 00  returns 0x00 (0001ms, 0790ms total)
T1240 006:641 JLINK_ReadMem (0x40021000, 0x0024 Bytes, ...) -- CPU is running -- CPU_ReadMem(36 bytes @ 0x40021000) - Data: 83 57 03 03 0A 04 1D 00 00 00 00 00 00 00 00 00 ...  returns 0x00 (0001ms, 0791ms total)
T1240 006:642 JLINK_ReadMem (0x40021024, 0x0004 Bytes, ...) -- CPU is running -- CPU_ReadMem(4 bytes @ 0x40021024) - Data: 00 00 00 1C  returns 0x00 (0001ms, 0792ms total)
T1240 006:643 JLINK_ReadMem (0x40011400, 0x000C Bytes, ...) -- CPU is running -- CPU_ReadMem(12 bytes @ 0x40011400) - Data: 44 44 44 44 44 44 44 44 04 00 00 00  returns 0x00 (0001ms, 0793ms total)
T1240 006:644 JLINK_ReadMem (0x4001140C, 0x0004 Bytes, ...) -- CPU is running -- CPU_ReadMem(4 bytes @ 0x4001140C) - Data: 00 00 00 00  returns 0x00 (0001ms, 0794ms total)
T1240 006:645 JLINK_ReadMem (0x40011418, 0x0004 Bytes, ...) -- CPU is running -- CPU_ReadMem(4 bytes @ 0x40011418) - Data: 00 00 00 00  returns 0x00 (0001ms, 0795ms total)
T1240 006:646 JLINK_ReadMem (0x40010800, 0x000C Bytes, ...) -- CPU is running -- CPU_ReadMem(12 bytes @ 0x40010800) - Data: 33 4B 33 44 B4 44 84 88 74 DF 00 00  returns 0x00 (0001ms, 0796ms total)
T1240 006:647 JLINK_ReadMem (0x4001080C, 0x0004 Bytes, ...) -- CPU is running -- CPU_ReadMem(4 bytes @ 0x4001080C) - Data: 30 A0 00 00  returns 0x00 (0001ms, 0797ms total)
T1240 006:648 JLINK_ReadMem (0x40010818, 0x0004 Bytes, ...) -- CPU is running -- CPU_ReadMem(4 bytes @ 0x40010818) - Data: 00 00 00 00  returns 0x00 (0001ms, 0798ms total)
T1240 006:649 JLINK_ReadMem (0x40010C00, 0x000C Bytes, ...) -- CPU is running -- CPU_ReadMem(12 bytes @ 0x40010C00) - Data: 44 44 44 44 33 44 33 43 FB 8C 00 00  returns 0x00 (0001ms, 0799ms total)
T1240 006:650 JLINK_ReadMem (0x40010C0C, 0x0004 Bytes, ...) -- CPU is running -- CPU_ReadMem(4 bytes @ 0x40010C0C) - Data: 10 00 00 00  returns 0x00 (0001ms, 0800ms total)
T1240 006:651 JLINK_ReadMem (0x40010C18, 0x0004 Bytes, ...) -- CPU is running -- CPU_ReadMem(4 bytes @ 0x40010C18) - Data: 00 00 00 00  returns 0x00 (0001ms, 0801ms total)
T1240 006:652 JLINK_ReadMem (0x40011000, 0x000C Bytes, ...) -- CPU is running -- CPU_ReadMem(12 bytes @ 0x40011000) - Data: 43 44 44 44 44 44 44 44 EE FF 00 00  returns 0x00 (0001ms, 0802ms total)
T1240 006:653 JLINK_ReadMem (0x4001100C, 0x0004 Bytes, ...) -- CPU is running -- CPU_ReadMem(4 bytes @ 0x4001100C) - Data: 00 00 00 00  returns 0x00 (0001ms, 0803ms total)
T1240 006:654 JLINK_ReadMem (0x40011018, 0x0004 Bytes, ...) -- CPU is running -- CPU_ReadMem(4 bytes @ 0x40011018) - Data: 00 00 00 00  returns 0x00 (0001ms, 0804ms total)
T1838 006:655 JLINK_IsHalted()  returns FALSE (0001ms, 0805ms total)
T1838 006:756 JLINK_IsHalted()  returns FALSE (0001ms, 0805ms total)
T1838 006:857 JLINK_IsHalted()  returns FALSE (0001ms, 0805ms total)
T1838 006:958 JLINK_IsHalted()  returns FALSE (0001ms, 0805ms total)
